44EMTDC_Simulation , 1,1999
12,12A, 0D
 1, A1: A1,A,A1,kA,0.445013E-02,-9.05942    , 0.0,     0,  4096,     1.000000,1,S
 2, A2: A2,B,A2,kA,0.734863E-03,-1.45162    , 0.0,     0,  4096,     1.000000,1,S
 3, A3: A3,C,A3,kA,0.944771E-03,-1.89516    , 0.0,     0,  4096,     1.000000,1,S
 4, A4: A4,A,A4,kV,0.932471E-01,-191.256    , 0.0,     0,  4096,     1.000000,1,S
 5, A5: A5,B,A5,kV,0.127285    ,-261.390    , 0.0,     0,  4096,     1.000000,1,S
 6, A6: A6,C,A6,kV,0.102914    ,-211.521    , 0.0,     0,  4096,     1.000000,1,S
 7, A7: A7,A,A7,kA,0.459182E-02,-8.65339    , 0.0,     0,  4096,     1.000000,1,S
 8, A8: A8,B,A8,kA,0.463895E-02,-10.3426    , 0.0,     0,  4096,     1.000000,1,S
 9, A9: A9,C,A9,kA,0.423992E-02,-8.68452    , 0.0,     0,  4096,     1.000000,1,S
10, A10: A10,A,A10,kV,0.402319E-02,-8.22871    , 0.0,     0,  4096,     1.000000,1,S
11, A11: A11,B,A11,kV,0.427424E-02,-8.58288    , 0.0,     0,  4096,     1.000000,1,S
12, A12: A12,C,A12,kV,0.387798E-02,-7.94203    , 0.0,     0,  4096,     1.000000,1,S
50
1
10000,     20001
02/04/2022,17:11:32.000000    
02/04/2022,17:11:32.000000    
ASCII
1
         1,         0,  2010,  2476,  1736,   732,  3528,  1427,  2292,  3606,   100,  1926,  3665,   345
         2,       100,  2007,  2480,  1747,   674,  3517,  1493,  2223,  3653,   125,  1852,  3695,   389
         3,       200,  2004,  2483,  1758,   618,  3504,  1560,  2152,  3697,   152,  1778,  3723,   435
         4,       300,  2001,  2486,  1770,   564,  3489,  1627,  2082,  3740,   182,  1705,  3748,   483
         5,       400,  1999,  2488,  1783,   512,  3472,  1695,  2011,  3780,   215,  1632,  3771,   534
         6,       500,  1996,  2489,  1795,   463,  3453,  1764,  1940,  3818,   250,  1560,  3791,   586
         7,       600,  1993,  2489,  1808,   415,  3431,  1833,  1869,  3854,   288,  1489,  3808,   641
         8,       700,  1990,  2488,  1822,   370,  3408,  1903,  1798,  3887,   328,  1418,  3824,   698
         9,       800,  1988,  2487,  1835,   327,  3383,  1973,  1727,  3919,   371,  1348,  3836,   757
        10,       900,  1985,  2485,  1849,   287,  3356,  2042,  1656,  3947,   416,  1279,  3846,   817
        11,      1000,  1982,  2482,  1863,   249,  3327,  2112,  1586,  3974,   463,  1211,  3853,   879
        12,      1100,  1980,  2479,  1877,   214,  3297,  2182,  1516,  3997,   513,  1145,  3858,   943
        13,      1200,  1978,  2475,  1891,   182,  3264,  2252,  1447,  4019,   565,  1079,  3860,  1009
        14,      1300,  1975,  2470,  1906,   152,  3230,  2321,  1378,  4037,   619,  1016,  3859,  1076
        15,      1400,  1973,  2465,  1920,   125,  3194,  2390,  1310,  4054,   675,   953,  3856,  1144
        16,      1500,  1971,  2458,  1935,   100,  3157,  2458,  1243,  4067,   733,   892,  3850,  1214
        17,      1600,  1969,  2452,  1950,    78,  3118,  2526,  1176,  4078,   793,   833,  3842,  1285
        18,      1700,  1967,  2444,  1965,    59,  3078,  2593,  1111,  4087,   854,   775,  3831,  1356
        19,      1800,  1965,  2436,  1980,    43,  3036,  2660,  1047,  4092,   917,   720,  3817,  1429
        20,      1900,  1964,  2427,  1995,    30,  2992,  2725,   984,  4095,   982,   666,  3801,  1503
        21,      2000,  1962,  2417,  2010,    20,  2948,  2790,   922,  4096,  1049,   614,  3782,  1578
        22,      2100,  1960,  2407,  2025,    12,  2902,  2854,   862,  4094,  1117,   564,  3761,  1653
        23,      2200,  1959,  2396,  2040,     8,  2854,  2916,   803,  4089,  1186,   516,  3737,  1729
        24,      2300,  1958,  2385,  2055,     6,  2806,  2977,   745,  4081,  1256,   471,  3711,  1805
        25,      2400,  1957,  2373,  2070,     7,  2757,  3037,   690,  4071,  1328,   427,  3682,  1881
        26,      2500,  1955,  2361,  2085,    12,  2706,  3096,   635,  4058,  1400,   386,  3651,  1958
        27,      2600,  1954,  2347,  2099,    19,  2655,  3153,   583,  4043,  1473,   348,  3618,  2035
        28,      2700,  1954,  2334,  2114,    28,  2603,  3208,   533,  4025,  1548,   311,  3582,  2112
        29,      2800,  1953,  2320,  2128,    41,  2550,  3262,   484,  4004,  1623,   278,  3544,  2189
        30,      2900,  1952,  2305,  2142,    57,  2497,  3314,   438,  3982,  1698,   246,  3504,  2266
        31,      3000,  1952,  2290,  2157,    75,  2442,  3365,   393,  3956,  1774,   217,  3462,  2342
        32,      3100,  1951,  2275,  2170,    97,  2387,  3413,   351,  3928,  1851,   191,  3418,  2418
        33,      3200,  1951,  2259,  2184,   121,  2332,  3460,   311,  3898,  1928,   168,  3371,  2493
        34,      3300,  1951,  2242,  2197,   148,  2277,  3504,   273,  3865,  2004,   147,  3323,  2568
        35,      3400,  1951,  2226,  2210,   177,  2221,  3547,   237,  3830,  2081,   129,  3273,  2642
        36,      3500,  1951,  2209,  2223,   209,  2164,  3587,   204,  3793,  2158,   113,  3221,  2715
        37,      3600,  1951,  2191,  2236,   244,  2108,  3625,   173,  3753,  2235,   101,  3168,  2787
        38,      3700,  1952,  2173,  2248,   282,  2051,  3661,   144,  3711,  2312,    91,  3112,  2859
        39,      3800,  1952,  2155,  2259,   321,  1995,  3695,   118,  3668,  2388,    84,  3056,  2929
        40,      3900,  1953,  2137,  2271,   364,  1939,  3726,    95,  3622,  2463,    79,  2997,  2997
        41,      4000,  1953,  2119,  2282,   409,  1882,  3755,    74,  3574,  2538,    78,  2938,  3065
        42,      4100,  1954,  2100,  2293,   456,  1826,  3782,    56,  3524,  2613,    79,  2876,  3131
        43,      4200,  1955,  2081,  2303,   505,  1771,  3806,    40,  3472,  2686,    83,  2814,  3195
        44,      4300,  1956,  2062,  2313,   556,  1716,  3828,    27,  3419,  2759,    90,  2751,  3258
        45,      4400,  1957,  2043,  2322,   610,  1661,  3847,    16,  3364,  2830,    99,  2686,  3319
        46,      4500,  1959,  2024,  2331,   666,  1607,  3863,     8,  3307,  2901,   112,  2621,  3379
        47,      4600,  1960,  2005,  2339,   724,  1553,  3877,     3,  3249,  2970,   127,  2555,  3436
        48,      4700,  1962,  1985,  2348,   783,  1500,  3889,     1,  3190,  3038,   145,  2487,  3491
        49,      4800,  1963,  1966,  2355,   845,  1448,  3898,     1,  3129,  3105,   165,  2420,  3545
        50,      4900,  1965,  1947,  2362,   908,  1397,  3904,     4,  3066,  3170,   188,  2351,  3596
        51,      5000,  1967,  1927,  2369,   972,  1347,  3907,     9,  3003,  3233,   214,  2283,  3645
        52,      5100,  1969,  1908,  2375,  1039,  1297,  3908,    17,  2938,  3295,   243,  2213,  3692
        53,      5200,  1971,  1889,  2380,  1106,  1249,  3906,    28,  2873,  3355,   274,  2144,  3736
        54,      5300,  1973,  1870,  2385,  1175,  1202,  3902,    42,  2806,  3413,   307,  2074,  3778
        55,      5400,  1975,  1851,  2389,  1246,  1156,  3895,    58,  2739,  3469,   343,  2004,  3818
        56,      5500,  1977,  1832,  2393,  1317,  1112,  3886,    76,  2671,  3523,   382,  1934,  3855
        57,      5600,  1979,  1814,  2397,  1389,  1068,  3873,    98,  2602,  3575,   423,  1865,  3889
        58,      5700,  1982,  1796,  2399,  1463,  1026,  3859,   121,  2533,  3625,   466,  1795,  3921
        59,      5800,  1984,  1778,  2402,  1537,   986,  3841,   148,  2464,  3673,   511,  1726,  3951
        60,      5900,  1987,  1760,  2403,  1612,   947,  3821,   177,  2394,  3718,   558,  1657,  3977
        61,      6000,  1990,  1743,  2404,  1688,   910,  3799,   208,  2324,  3761,   608,  1589,  4001
        62,      6100,  1992,  1726,  2405,  1764,   874,  3774,   241,  2253,  3802,   660,  1521,  4022
        63,      6200,  1995,  1709,  2405,  1840,   840,  3747,   277,  2183,  3840,   713,  1454,  4040
        64,      6300,  1998,  1693,  2404,  1917,   808,  3717,   315,  2113,  3875,   769,  1388,  4056
        65,      6400,  2001,  1677,  2403,  1994,   778,  3685,   356,  2043,  3908,   826,  1323,  4068
        66,      6500,  2004,  1661,  2401,  2071,   749,  3651,   399,  1973,  3939,   885,  1258,  4078
        67,      6600,  2007,  1646,  2399,  2148,   722,  3614,   443,  1903,  3966,   946,  1195,  4084
        68,      6700,  2010,  1632,  2396,  2225,   697,  3575,   490,  1834,  3991,  1008,  1133,  4088
        69,      6800,  2013,  1617,  2392,  2302,   674,  3534,   539,  1766,  4013,  1072,  1072,  4089
        70,      6900,  2016,  1604,  2388,  2378,   653,  3491,   590,  1698,  4032,  1137,  1013,  4087
        71,      7000,  2019,  1591,  2384,  2454,   634,  3446,   642,  1631,  4049,  1204,   954,  4082
        72,      7100,  2022,  1578,  2379,  2529,   617,  3399,   696,  1565,  4062,  1271,   898,  4075
        73,      7200,  2025,  1566,  2373,  2604,   602,  3350,   752,  1500,  4073,  1340,   843,  4064
        74,      7300,  2029,  1555,  2367,  2678,   589,  3299,   810,  1435,  4081,  1410,   789,  4051
        75,      7400,  2032,  1544,  2360,  2751,   578,  3246,   869,  1372,  4086,  1480,   737,  4034
        76,      7500,  2035,  1534,  2353,  2822,   569,  3192,   929,  1310,  4088,  1552,   688,  4015
        77,      7600,  2038,  1524,  2346,  2893,   563,  3136,   991,  1250,  4087,  1624,   640,  3993
        78,      7700,  2041,  1516,  2338,  2963,   558,  3078,  1055,  1191,  4084,  1697,   593,  3969
        79,      7800,  2044,  1507,  2329,  3031,   556,  3020,  1119,  1133,  4077,  1770,   549,  3941
        80,      7900,  2048,  1500,  2320,  3098,   556,  2959,  1184,  1077,  4067,  1844,   507,  3911
        81,      8000,  2051,  1493,  2310,  3164,   557,  2898,  1251,  1023,  4055,  1918,   468,  3878
        82,      8100,  2054,  1487,  2301,  3228,   561,  2835,  1318,   970,  4040,  1992,   430,  3843
        83,      8200,  2057,  1481,  2290,  3290,   568,  2771,  1386,   919,  4022,  2066,   395,  3805
        84,      8300,  2060,  1476,  2279,  3350,   576,  2706,  1455,   870,  4001,  2140,   362,  3765
        85,      8400,  2063,  1472,  2268,  3409,   586,  2640,  1525,   823,  3977,  2214,   331,  3722
        86,      8500,  2066,  1469,  2257,  3465,   598,  2573,  1595,   777,  3951,  2288,   302,  3677
        87,      8600,  2069,  1466,  2245,  3520,   613,  2506,  1665,   734,  3922,  2361,   276,  3629
        88,      8700,  2072,  1464,  2233,  3573,   629,  2438,  1736,   693,  3890,  2434,   253,  3579
        89,      8800,  2075,  1463,  2220,  3623,   648,  2369,  1807,   655,  3856,  2507,   232,  3527
        90,      8900,  2078,  1463,  2207,  3671,   669,  2300,  1878,   618,  3819,  2578,   213,  3473
        91,      9000,  2080,  1463,  2194,  3717,   691,  2231,  1949,   584,  3779,  2649,   197,  3417
        92,      9100,  2083,  1464,  2181,  3761,   715,  2161,  2020,   552,  3737,  2719,   184,  3359
        93,      9200,  2086,  1466,  2167,  3802,   742,  2092,  2091,   522,  3693,  2789,   173,  3299
        94,      9300,  2088,  1468,  2153,  3840,   770,  2022,  2161,   495,  3646,  2857,   165,  3238
        95,      9400,  2091,  1471,  2139,  3876,   800,  1952,  2231,   471,  3597,  2924,   159,  3174
        96,      9500,  2093,  1475,  2125,  3910,   832,  1882,  2301,   448,  3546,  2990,   156,  3109
        97,      9600,  2095,  1480,  2111,  3941,   865,  1813,  2370,   429,  3493,  3054,   156,  3043
        98,      9700,  2098,  1485,  2096,  3969,   901,  1744,  2438,   412,  3438,  3117,   159,  2975
        99,      9800,  2100,  1491,  2081,  3994,   937,  1675,  2506,   397,  3380,  3178,   164,  2906
       100,      9900,  2102,  1497,  2066,  4017,   976,  1607,  2572,   385,  3321,  3238,   171,  2835
       101,     10000,  2104,  1505,  2051,  4037,  1016,  1540,  2638,   376,  3260,  3296,   181,  2764
       102,     10100,  2106,  1513,  2037,  4054,  1057,  1473,  2702,   370,  3197,  3353,   194,  2691
       103,     10200,  2107,  1522,  2022,  4068,  1100,  1407,  2766,   366,  3133,  3407,   209,  2618
       104,     10300,  2109,  1531,  2006,  4079,  1145,  1342,  2828,   364,  3067,  3460,   227,  2543
       105,     10400,  2111,  1541,  1991,  4088,  1190,  1278,  2889,   366,  3000,  3510,   248,  2468
       106,     10500,  2112,  1551,  1976,  4093,  1237,  1215,  2948,   370,  2931,  3559,   271,  2393
       107,     10600,  2113,  1563,  1961,  4096,  1285,  1154,  3006,   376,  2861,  3605,   296,  2317
       108,     10700,  2115,  1574,  1947,  4095,  1334,  1093,  3063,   386,  2790,  3649,   324,  2240
       109,     10800,  2116,  1587,  1932,  4092,  1384,  1034,  3117,   397,  2718,  3691,   354,  2163
       110,     10900,  2117,  1599,  1917,  4086,  1435,   977,  3170,   412,  2645,  3730,   387,  2087
       111,     11000,  2118,  1613,  1902,  4077,  1487,   921,  3221,   429,  2571,  3768,   422,  2010
       112,     11100,  2118,  1627,  1888,  4065,  1539,   866,  3270,   449,  2496,  3802,   459,  1933
       113,     11200,  2119,  1641,  1874,  4051,  1593,   814,  3318,   471,  2420,  3834,   498,  1856
       114,     11300,  2120,  1656,  1859,  4033,  1647,   763,  3363,   496,  2345,  3864,   540,  1780
       115,     11400,  2120,  1672,  1846,  4013,  1701,   714,  3406,   523,  2268,  3891,   583,  1703
       116,     11500,  2120,  1687,  1832,  3990,  1756,   666,  3447,   552,  2192,  3915,   629,  1628
       117,     11600,  2120,  1704,  1819,  3964,  1812,   621,  3485,   584,  2115,  3937,   677,  1553
       118,     11700,  2120,  1720,  1805,  3935,  1868,   578,  3522,   618,  2038,  3956,   726,  1479
       119,     11800,  2120,  1737,  1792,  3904,  1924,   537,  3556,   655,  1961,  3972,   777,  1405
       120,     11900,  2120,  1754,  1780,  3870,  1980,   498,  3588,   694,  1884,  3986,   830,  1333
       121,     12000,  2120,  1772,  1768,  3833,  2037,   461,  3617,   735,  1807,  3997,   885,  1261
       122,     12100,  2120,  1790,  1756,  3794,  2093,   427,  3644,   778,  1731,  4005,   941,  1191
       123,     12200,  2119,  1808,  1744,  3753,  2150,   395,  3668,   823,  1655,  4010,   999,  1121
       124,     12300,  2118,  1826,  1733,  3709,  2206,   365,  3690,   870,  1580,  4013,  1058,  1053
       125,     12400,  2118,  1845,  1722,  3662,  2262,   337,  3709,   920,  1506,  4012,  1119,   987
       126,     12500,  2117,  1864,  1712,  3614,  2318,   312,  3726,   970,  1432,  4009,  1181,   922
       127,     12600,  2116,  1883,  1702,  3563,  2373,   290,  3740,  1023,  1359,  4003,  1244,   859
       128,     12700,  2114,  1902,  1692,  3510,  2428,   270,  3751,  1078,  1287,  3995,  1308,   797
       129,     12800,  2113,  1921,  1683,  3455,  2483,   253,  3760,  1134,  1216,  3983,  1373,   737
       130,     12900,  2112,  1940,  1675,  3398,  2536,   238,  3766,  1191,  1146,  3969,  1439,   679
       131,     13000,  2110,  1960,  1666,  3339,  2589,   225,  3769,  1251,  1078,  3952,  1506,   623
       132,     13100,  2109,  1979,  1659,  3278,  2642,   216,  3770,  1311,  1011,  3933,  1574,   569
       133,     13200,  2107,  1998,  1652,  3216,  2693,   209,  3768,  1373,   945,  3910,  1642,   517
       134,     13300,  2105,  2018,  1645,  3152,  2744,   204,  3764,  1436,   881,  3885,  1711,   467
       135,     13400,  2104,  2037,  1639,  3086,  2794,   203,  3756,  1500,   819,  3858,  1780,   419
       136,     13500,  2102,  2056,  1633,  3019,  2842,   203,  3746,  1566,   758,  3828,  1849,   374
       137,     13600,  2100,  2075,  1628,  2950,  2890,   207,  3734,  1632,   700,  3795,  1919,   331
       138,     13700,  2097,  2094,  1623,  2880,  2936,   213,  3719,  1699,   643,  3760,  1989,   291
       139,     13800,  2095,  2113,  1619,  2809,  2981,   222,  3701,  1767,   588,  3722,  2058,   253
       140,     13900,  2093,  2131,  1616,  2737,  3025,   233,  3680,  1835,   535,  3682,  2128,   218
       141,     14000,  2090,  2150,  1613,  2664,  3067,   247,  3657,  1904,   485,  3640,  2198,   185
       142,     14100,  2088,  2168,  1611,  2590,  3108,   263,  3632,  1973,   436,  3595,  2267,   155
       143,     14200,  2085,  2185,  1609,  2515,  3147,   282,  3604,  2043,   390,  3548,  2336,   127
       144,     14300,  2083,  2203,  1607,  2440,  3185,   304,  3573,  2113,   346,  3499,  2404,   103
       145,     14400,  2080,  2220,  1607,  2364,  3221,   328,  3541,  2184,   305,  3448,  2472,    81
       146,     14500,  2077,  2237,  1607,  2287,  3256,   354,  3506,  2254,   266,  3395,  2540,    62
       147,     14600,  2075,  2253,  1607,  2211,  3288,   383,  3468,  2324,   230,  3340,  2606,    45
       148,     14700,  2072,  2269,  1608,  2134,  3320,   415,  3428,  2394,   196,  3284,  2672,    32
       149,     14800,  2069,  2285,  1610,  2057,  3349,   448,  3386,  2464,   165,  3225,  2736,    21
       150,     14900,  2066,  2300,  1612,  1980,  3376,   484,  3342,  2534,   136,  3165,  2800,    13
       151,     15000,  2063,  2315,  1614,  1903,  3402,   522,  3296,  2603,   110,  3103,  2863,     9
       152,     15100,  2060,  2329,  1618,  1826,  3426,   562,  3248,  2672,    87,  3040,  2924,     7
       153,     15200,  2057,  2343,  1622,  1749,  3447,   605,  3198,  2740,    67,  2975,  2984,     8
       154,     15300,  2054,  2356,  1626,  1673,  3467,   649,  3146,  2807,    50,  2909,  3043,    12
       155,     15400,  2050,  2369,  1631,  1598,  3485,   696,  3093,  2874,    35,  2842,  3100,    18
       156,     15500,  2047,  2381,  1636,  1523,  3500,   744,  3037,  2939,    24,  2774,  3155,    28
       157,     15600,  2044,  2393,  1642,  1449,  3514,   795,  2980,  3004,    15,  2704,  3209,    40
       158,     15700,  2041,  2404,  1649,  1376,  3526,   847,  2921,  3067,     9,  2634,  3262,    56
       159,     15800,  2038,  2414,  1656,  1304,  3535,   900,  2861,  3129,     6,  2563,  3312,    74
       160,     15900,  2035,  2424,  1663,  1232,  3542,   956,  2800,  3190,     6,  2491,  3361,    95
       161,     16000,  2031,  2433,  1671,  1162,  3548,  1013,  2737,  3250,     8,  2418,  3407,   119
       162,     16100,  2028,  2441,  1679,  1093,  3551,  1071,  2673,  3308,    14,  2345,  3452,   145
       163,     16200,  2025,  2449,  1688,  1026,  3552,  1131,  2608,  3365,    23,  2272,  3495,   174
       164,     16300,  2022,  2456,  1698,   960,  3551,  1192,  2542,  3420,    34,  2198,  3535,   206
       165,     16400,  2019,  2463,  1707,   896,  3547,  1255,  2475,  3473,    48,  2124,  3574,   241
       166,     16500,  2016,  2468,  1718,   833,  3542,  1318,  2407,  3525,    65,  2050,  3610,   278
       167,     16600,  2012,  2473,  1728,   772,  3534,  1383,  2338,  3574,    85,  1975,  3644,   318
       168,     16700,  2009,  2478,  1739,   713,  3525,  1448,  2269,  3622,   108,  1901,  3675,   360
       169,     16800,  2006,  2481,  1751,   655,  3513,  1515,  2199,  3668,   134,  1827,  3705,   404
       170,     16900,  2003,  2484,  1762,   600,  3499,  1582,  2129,  3712,   162,  1754,  3731,   451
       171,     17000,  2000,  2487,  1775,   547,  3483,  1650,  2058,  3754,   193,  1681,  3756,   500
       172,     17100,  1998,  2488,  1787,   496,  3466,  1718,  1987,  3793,   226,  1608,  3778,   551
       173,     17200,  1995,  2489,  1800,   447,  3446,  1787,  1916,  3830,   262,  1536,  3797,   604
       174,     17300,  1992,  2489,  1813,   400,  3424,  1857,  1845,  3865,   301,  1465,  3814,   660
       175,     17400,  1989,  2488,  1826,   356,  3400,  1926,  1774,  3898,   342,  1394,  3828,   717
       176,     17500,  1987,  2487,  1840,   314,  3374,  1996,  1704,  3928,   385,  1325,  3840,   777
       177,     17600,  1984,  2484,  1853,   274,  3347,  2066,  1633,  3956,   431,  1256,  3849,   838
       178,     17700,  1982,  2481,  1867,   237,  3317,  2136,  1563,  3982,   480,  1189,  3855,   900
